# HZ S RI R 50
1000000000 0.449054 -0.862447 0.006988 0.005931 0 0 0 0
1020000000 0.38138 -0.87632 0.008077 0.006817 0 0 0 0
1040000000 0.382109 -0.87516 0.009982 0.00729 0 0 0 0
1060000000 0.332652 -0.876056 0.011143 0.007271 0 0 0 0
1080000000 0.288885 -0.866225 0.01347 0.006473 0 0 0 0
1100000000 0.231175 -0.844791 0.014442 0.006175 0 0 0 0
1120000000 0.199636 -0.811189 0.016398 0.00779 0 0 0 0
1140000000 0.185836 -0.754216 0.025258 0.008248 0 0 0 0
1160000000 0.170893 -0.775701 0.03023 -0.001003 0 0 0 0
1180000000 0.126203 -0.764986 0.029786 -0.010059 0 0 0 0
1200000000 0.115845 -0.765264 0.027013 -0.01736 0 0 0 0
1220000000 0.075408 -0.722793 0.022868 -0.019158 0 0 0 0
1240000000 0.064678 -0.711875 0.02399 -0.02771 0 0 0 0
1260000000 0.043226 -0.703161 0.009894 -0.037229 0 0 0 0
1280000000 0.080178 -0.723757 -0.005559 -0.027826 0 0 0 0
1300000000 0.058324 -0.768284 -0.011778 -0.014135 0 0 0 0
1320000000 0.007 -0.788173 -0.005585 -0.004917 0 0 0 0
1340000000 -0.056274 -0.781264 0.007854 0.000252 0 0 0 0
1360000000 -0.172809 -0.666902 0.017999 -0.014019 0 0 0 0
1380000000 -0.11704 -0.724904 0.005609 -0.028455 0 0 0 0
1400000000 -0.1095 -0.74593 -0.013403 -0.018652 0 0 0 0
1420000000 -0.14947 -0.773737 -0.013148 -0.000133 0 0 0 0
1440000000 -0.219138 -0.778428 0.002869 0.012426 0 0 0 0
1460000000 -0.290146 -0.725584 0.021869 0.006191 0 0 0 0
1480000000 -0.337032 -0.643873 0.029596 -0.008072 0 0 0 0
1500000000 -0.349055 -0.56425 0.025576 -0.021108 0 0 0 0
1520000000 -0.345408 -0.506239 0.015787 -0.026052 0 0 0 0
1540000000 -0.365422 -0.439027 0.014208 -0.022966 0 0 0 0
1560000000 -0.349522 -0.340332 0.019157 -0.023741 0 0 0 0
1580000000 -0.301392 -0.265427 0.020009 -0.030795 0 0 0 0
1600000000 -0.263182 -0.244777 0.018186 -0.037733 0 0 0 0
1620000000 -0.25876 -0.184033 0.016663 -0.045171 0 0 0 0
1640000000 -0.159551 -0.135583 0.012034 -0.060936 0 0 0 0
1660000000 -0.09706 -0.197584 -0.004018 -0.06986 0 0 0 0
1680000000 -0.137937 -0.250045 -0.016536 -0.067021 0 0 0 0
1700000000 -0.168286 -0.201899 -0.029028 -0.065077 0 0 0 0
1720000000 -0.142686 -0.178403 -0.045318 -0.06515 0 0 0 0
1740000000 -0.127879 -0.20394 -0.056884 -0.051786 0 0 0 0
1760000000 -0.142355 -0.20831 -0.060753 -0.038277 0 0 0 0
1780000000 -0.112231 -0.202056 -0.063013 -0.017162 0 0 0 0
1800000000 -0.101311 -0.261903 -0.050007 -0.025285 0 0 0 0
1820000000 -0.161848 -0.304908 -0.058935 -0.024347 0 0 0 0
1840000000 -0.187919 -0.2611 -0.068687 -0.01302 0 0 0 0
1860000000 -0.182721 -0.252737 -0.065788 0.008588 0 0 0 0
1880000000 -0.197267 -0.234006 -0.054645 0.02389 0 0 0 0
1900000000 -0.186163 -0.1923 -0.036773 0.023414 0 0 0 0
1920000000 -0.154554 -0.168483 -0.020295 0.010223 0 0 0 0
1940000000 -0.12713 -0.156518 -0.021232 -0.00618 0 0 0 0
1960000000 -0.121917 -0.112721 -0.038903 -0.021622 0 0 0 0
1980000000 -0.052833 -0.087298 -0.057467 -0.004382 0 0 0 0
2000000000 -0.01383 -0.09545 -0.053758 0.006103 0 0 0 0
2020000000 0.008584 -0.104392 -0.048529 0.003631 0 0 0 0
2040000000 0.011649 -0.078869 -0.055764 -0.003262 0 0 0 0
2060000000 0.058952 -0.053007 -0.079436 0.001286 0 0 0 0
2080000000 0.103182 -0.056571 -0.094075 0.032347 0 0 0 0
2100000000 0.13258 -0.081434 -0.072912 0.06256 0 0 0 0
2120000000 0.152481 -0.121559 -0.049947 0.063584 0 0 0 0
2140000000 0.128295 -0.16321 -0.041305 0.064711 0 0 0 0
2160000000 0.106272 -0.175188 -0.036534 0.064526 0 0 0 0
2180000000 0.101434 -0.197941 -0.02654 0.071243 0 0 0 0
2200000000 0.082794 -0.228855 -0.016403 0.071067 0 0 0 0
2220000000 0.04021 -0.261752 -0.015072 0.06332 0 0 0 0
2240000000 -0.002293 -0.276052 -0.006579 0.066941 0 0 0 0
2260000000 -0.032989 -0.272782 0.001083 0.059973 0 0 0 0
2280000000 -0.045284 -0.262202 -0.004698 0.061533 0 0 0 0
2300000000 -0.037709 -0.254308 0.006944 0.068243 0 0 0 0
2320000000 -0.031069 -0.253332 0.01744 0.056302 0 0 0 0
2340000000 -0.023297 -0.259752 0.012118 0.053056 0 0 0 0
2360000000 0.013029 -0.242153 0.01116 0.054982 0 0 0 0
2380000000 0.053828 -0.261296 0.016329 0.056351 0 0 0 0
2400000000 0.085437 -0.300761 0.019697 0.060301 0 0 0 0
2420000000 0.101967 -0.322825 0.032128 0.066962 0 0 0 0
2440000000 0.092219 -0.356533 0.04568 0.054 0 0 0 0
2460000000 0.082365 -0.348861 0.046041 0.048068 0 0 0 0
2480000000 0.08309 -0.343498 0.045546 0.042155 0 0 0 0
2500000000 0.068468 -0.329876 0.047847 0.031732 0 0 0 0
2520000000 0.089131 -0.325217 0.042317 0.028809 0 0 0 0
2540000000 0.078345 -0.338146 0.044931 0.031224 0 0 0 0
2560000000 0.069759 -0.333615 0.047329 0.030296 0 0 0 0
2580000000 0.02954 -0.324945 0.047523 0.029003 0 0 0 0
2600000000 -0.002743 -0.311343 0.053974 0.029284 0 0 0 0
2620000000 -0.029888 -0.296889 0.057182 0.024135 0 0 0 0
2640000000 -0.029855 -0.272225 0.058777 0.018536 0 0 0 0
2660000000 -0.03583 -0.301486 0.065572 0.010841 0 0 0 0
2680000000 -0.063902 -0.307859 0.062009 0.007961 0 0 0 0
2700000000 -0.107762 -0.325737 0.066524 0.003032 0 0 0 0
2720000000 -0.117882 -0.315302 0.064029 -0.004677 0 0 0 0
2740000000 -0.122526 -0.328585 0.064814 -0.01036 0 0 0 0
2760000000 -0.131574 -0.368083 0.059993 -0.019202 0 0 0 0
2780000000 -0.15032 -0.384308 0.058753 -0.019452 0 0 0 0
2800000000 -0.170905 -0.395473 0.049859 -0.024035 0 0 0 0
2820000000 -0.174106 -0.400428 0.046589 -0.024261 0 0 0 0
2840000000 -0.161396 -0.418801 0.049783 -0.020421 0 0 0 0
2860000000 -0.153579 -0.403743 0.052535 -0.01698 0 0 0 0
2880000000 -0.130788 -0.381102 0.065061 -0.024963 0 0 0 0
2900000000 -0.057426 -0.37398 0.064215 -0.043671 0 0 0 0
2920000000 -0.042138 -0.409734 0.057404 -0.055089 0 0 0 0
2940000000 -0.048622 -0.404615 0.045694 -0.065387 0 0 0 0
2960000000 -0.055124 -0.397587 0.035926 -0.062571 0 0 0 0
2980000000 -0.045866 -0.38951 0.031569 -0.065654 0 0 0 0
3000000000 -0.059445 -0.348294 0.024072 -0.067357 0 0 0 0
