# HZ S RI R 50
1000000000 0.119385 -0.824776 0.041743 -0.045401 0 0 0 0
1020000000 0.149789 -0.896517 0.044137 -0.056192 0 0 0 0
1040000000 0.058817 -0.860351 0.039211 -0.070281 0 0 0 0
1060000000 0.050272 -0.840717 0.033494 -0.085 0 0 0 0
1080000000 0.02661 -0.795884 0.020902 -0.100001 0 0 0 0
1100000000 -0.011326 -0.745948 -0.001819 -0.115885 0 0 0 0
1120000000 -0.014557 -0.709902 -0.026858 -0.116963 0 0 0 0
1140000000 -0.021755 -0.657867 -0.052105 -0.131892 0 0 0 0
1160000000 -0.032936 -0.672833 -0.096247 -0.118465 0 0 0 0
1180000000 -0.064743 -0.651632 -0.12373 -0.08976 0 0 0 0
1200000000 -0.054147 -0.645446 -0.144768 -0.056765 0 0 0 0
1220000000 -0.090656 -0.612066 -0.128787 -0.021633 0 0 0 0
1240000000 -0.100472 -0.613444 -0.144247 -0.006164 0 0 0 0
1260000000 -0.131825 -0.621115 -0.140769 0.040059 0 0 0 0
1280000000 -0.128492 -0.63969 -0.108757 0.067573 0 0 0 0
1300000000 -0.172317 -0.657396 -0.073164 0.081651 0 0 0 0
1320000000 -0.235387 -0.635163 -0.047432 0.078463 0 0 0 0
1340000000 -0.305022 -0.585524 -0.028514 0.054306 0 0 0 0
1360000000 -0.312048 -0.509268 -0.028135 0.040991 0 0 0 0
1380000000 -0.310887 -0.480567 -0.037916 0.041781 0 0 0 0
1400000000 -0.312822 -0.449307 -0.022431 0.059431 0 0 0 0
1420000000 -0.29988 -0.403879 0.005474 0.036859 0 0 0 0
1440000000 -0.292161 -0.346288 -0.009481 0.007665 0 0 0 0
1460000000 -0.24401 -0.294694 -0.023069 0.009273 0 0 0 0
1480000000 -0.182666 -0.272685 -0.029831 0.004625 0 0 0 0
1500000000 -0.139765 -0.271373 -0.035381 -0.003631 0 0 0 0
1520000000 -0.092727 -0.273139 -0.060435 -0.004745 0 0 0 0
1540000000 -0.067877 -0.334078 -0.092853 0.007692 0 0 0 0
1560000000 -0.13514 -0.361838 -0.098008 0.05105 0 0 0 0
1580000000 -0.178456 -0.300114 -0.076303 0.079008 0 0 0 0
1600000000 -0.162404 -0.247445 -0.06355 0.074284 0 0 0 0
1620000000 -0.14736 -0.217144 -0.06065 0.091768 0 0 0 0
1640000000 -0.117925 -0.197115 -0.044607 0.102466 0 0 0 0
1660000000 -0.094291 -0.232382 -0.040209 0.100699 0 0 0 0
1680000000 -0.141692 -0.267547 -0.041417 0.118583 0 0 0 0
1700000000 -0.176618 -0.223407 -0.023902 0.141389 0 0 0 0
1720000000 -0.18719 -0.194465 0.003817 0.158643 0 0 0 0
1740000000 -0.189145 -0.197769 0.038578 0.157358 0 0 0 0
1760000000 -0.210678 -0.176323 0.074491 0.157852 0 0 0 0
1780000000 -0.202859 -0.145932 0.115991 0.127274 0 0 0 0
1800000000 -0.197633 -0.103223 0.122865 0.08278 0 0 0 0
1820000000 -0.132032 -0.082992 0.099118 0.041745 0 0 0 0
1840000000 -0.089025 -0.129581 0.069684 0.059703 0 0 0 0
1860000000 -0.104014 -0.140312 0.088499 0.080501 0 0 0 0
1880000000 -0.095774 -0.114501 0.113926 0.069185 0 0 0 0
1900000000 -0.059703 -0.09378 0.125292 0.051279 0 0 0 0
1920000000 -0.008933 -0.055559 0.128368 0.030957 0 0 0 0
1940000000 0.095806 -0.061093 0.127019 0.007783 0 0 0 0
1960000000 0.182009 -0.13049 0.104651 -0.005018 0 0 0 0
1980000000 0.195569 -0.227222 0.101855 0.012271 0 0 0 0
2000000000 0.170261 -0.271869 0.116821 0.012754 0 0 0 0
2020000000 0.137066 -0.305076 0.133367 0.008429 0 0 0 0
2040000000 0.099518 -0.298927 0.149493 -0.014759 0 0 0 0
2060000000 0.079799 -0.27614 0.157378 -0.040579 0 0 0 0
2080000000 0.086233 -0.275286 0.14688 -0.069621 0 0 0 0
2100000000 0.071665 -0.296713 0.140027 -0.088146 0 0 0 0
2120000000 0.042509 -0.291473 0.131483 -0.120445 0 0 0 0
2140000000 0.006936 -0.289411 0.094955 -0.135134 0 0 0 0
2160000000 -0.018585 -0.279769 0.069999 -0.134515 0 0 0 0
2180000000 -0.030343 -0.274378 0.062474 -0.133463 0 0 0 0
2200000000 -0.049011 -0.263674 0.055381 -0.132369 0 0 0 0
2220000000 -0.058483 -0.267915 0.052717 -0.140528 0 0 0 0
2240000000 -0.063951 -0.259515 0.036113 -0.16609 0 0 0 0
2260000000 -0.038956 -0.272438 0.002674 -0.172616 0 0 0 0
2280000000 -0.034571 -0.305013 -0.028091 -0.164472 0 0 0 0
2300000000 -0.038718 -0.336635 -0.038709 -0.14578 0 0 0 0
2320000000 -0.060784 -0.366857 -0.046337 -0.150022 0 0 0 0
2340000000 -0.072777 -0.382521 -0.06917 -0.149841 0 0 0 0
2360000000 -0.049278 -0.372893 -0.097003 -0.137491 0 0 0 0
2380000000 -0.047942 -0.405139 -0.107003 -0.104449 0 0 0 0
2400000000 -0.060339 -0.41946 -0.102272 -0.098788 0 0 0 0
2420000000 -0.069863 -0.415801 -0.115714 -0.09511 0 0 0 0
2440000000 -0.055491 -0.39548 -0.129822 -0.080637 0 0 0 0
2460000000 -0.040027 -0.387008 -0.148882 -0.059891 0 0 0 0
2480000000 -0.039069 -0.384522 -0.146501 -0.031218 0 0 0 0
2500000000 -0.059934 -0.371324 -0.135476 -0.011584 0 0 0 0
2520000000 -0.044291 -0.357599 -0.128494 0.00347 0 0 0 0
2540000000 -0.056268 -0.343184 -0.119185 0.009743 0 0 0 0
2560000000 -0.060471 -0.33169 -0.114771 0.01176 0 0 0 0
2580000000 -0.067966 -0.326838 -0.12122 0.019007 0 0 0 0
2600000000 -0.09861 -0.316045 -0.11883 0.02746 0 0 0 0
2620000000 -0.123701 -0.316061 -0.124667 0.044542 0 0 0 0
2640000000 -0.146843 -0.292984 -0.116414 0.064193 0 0 0 0
2660000000 -0.170639 -0.300275 -0.101678 0.074341 0 0 0 0
2680000000 -0.205669 -0.302805 -0.097021 0.085519 0 0 0 0
2700000000 -0.221808 -0.272908 -0.083985 0.092827 0 0 0 0
2720000000 -0.242338 -0.277831 -0.071147 0.107868 0 0 0 0
2740000000 -0.235887 -0.293895 -0.055869 0.119456 0 0 0 0
2760000000 -0.237869 -0.318298 -0.033548 0.12258 0 0 0 0
2780000000 -0.241504 -0.322743 -0.015662 0.116578 0 0 0 0
2800000000 -0.250914 -0.343824 0.001522 0.110631 0 0 0 0
2820000000 -0.233323 -0.365936 0.014421 0.10093 0 0 0 0
2840000000 -0.218943 -0.391151 0.026277 0.097011 0 0 0 0
2860000000 -0.207142 -0.376057 0.034719 0.078341 0 0 0 0
2880000000 -0.198884 -0.38786 0.03327 0.065475 0 0 0 0
2900000000 -0.174589 -0.369837 0.028134 0.053513 0 0 0 0
2920000000 -0.156651 -0.361459 0.02187 0.05811 0 0 0 0
2940000000 -0.138702 -0.348988 0.025114 0.056313 0 0 0 0
2960000000 -0.145377 -0.321569 0.021906 0.052306 0 0 0 0
2980000000 -0.114586 -0.31111 0.023284 0.056877 0 0 0 0
3000000000 -0.093455 -0.294656 0.032015 0.060588 0 0 0 0
