# HZ S RI R 50
700000000 -0.03851 -0.099134 -0.002201 0.010422 0 0 0 0
704000000 -0.044127 -0.096914 -0.002436 0.00936 0 0 0 0
708000000 -0.049802 -0.093669 -0.002949 0.00933 0 0 0 0
712000000 -0.055238 -0.090028 -0.002844 0.008819 0 0 0 0
716000000 -0.060327 -0.086486 -0.002891 0.008324 0 0 0 0
720000000 -0.065732 -0.082546 -0.002915 0.008341 0 0 0 0
724000000 -0.070796 -0.078461 -0.002942 0.008298 0 0 0 0
728000000 -0.075027 -0.073455 -0.003329 0.007921 0 0 0 0
732000000 -0.079576 -0.068532 -0.003286 0.007326 0 0 0 0
736000000 -0.083479 -0.0633 -0.003457 0.007422 0 0 0 0
740000000 -0.086919 -0.05756 -0.00338 0.007268 0 0 0 0
744000000 -0.090565 -0.051878 -0.003082 0.007382 0 0 0 0
748000000 -0.093161 -0.046004 -0.003217 0.006937 0 0 0 0
752000000 -0.094663 -0.038899 -0.003315 0.007662 0 0 0 0
756000000 -0.096773 -0.032697 -0.002833 0.007522 0 0 0 0
760000000 -0.098131 -0.026107 -0.002967 0.007503 0 0 0 0
764000000 -0.099677 -0.019779 -0.002903 0.007845 0 0 0 0
768000000 -0.100508 -0.013112 -0.002837 0.008024 0 0 0 0
772000000 -0.100591 -0.006567 -0.002274 0.008474 0 0 0 0
776000000 -0.100867 0.000116 -0.001699 0.008504 0 0 0 0
780000000 -0.100557 0.006588 -0.001354 0.008243 0 0 0 0
784000000 -0.099611 0.013243 -0.001244 0.00922 0 0 0 0
788000000 -0.098302 0.019538 -0.000573 0.009294 0 0 0 0
792000000 -0.096752 0.026064 0.000309 0.008993 0 0 0 0
796000000 -0.095028 0.032268 0.000717 0.009359 0 0 0 0
800000000 -0.092417 0.038352 0.001227 0.009384 0 0 0 0
804000000 -0.089579 0.044214 0.001729 0.009627 0 0 0 0
808000000 -0.086506 0.050136 0.001847 0.010017 0 0 0 0
812000000 -0.082811 0.055399 0.002324 0.009573 0 0 0 0
816000000 -0.07892 0.060329 0.002624 0.010078 0 0 0 0
820000000 -0.074913 0.065108 0.002754 0.009938 0 0 0 0
824000000 -0.070381 0.06962 0.003104 0.00967 0 0 0 0
828000000 -0.065707 0.07386 0.002562 0.009365 0 0 0 0
832000000 -0.060765 0.077901 0.002486 0.009408 0 0 0 0
836000000 -0.055352 0.080944 0.001775 0.009515 0 0 0 0
840000000 -0.04985 0.084429 0.001512 0.009674 0 0 0 0
844000000 -0.044172 0.086779 0.001678 0.010185 0 0 0 0
848000000 -0.03865 0.08917 0.000715 0.010082 0 0 0 0
852000000 -0.032944 0.091555 -0.000386 0.010032 0 0 0 0
856000000 -0.027044 0.093581 -0.001265 0.010655 0 0 0 0
860000000 -0.021177 0.09469 -0.001461 0.010735 0 0 0 0
864000000 -0.015572 0.095071 -0.002442 0.010904 0 0 0 0
868000000 -0.009433 0.096051 -0.003806 0.011916 0 0 0 0
872000000 -0.003965 0.095916 -0.004173 0.012199 0 0 0 0
876000000 0.002009 0.095495 -0.003665 0.012954 0 0 0 0
880000000 0.007525 0.094643 -0.00377 0.013438 0 0 0 0
884000000 0.012511 0.093269 -0.003392 0.013647 0 0 0 0
888000000 0.018034 0.091828 -0.002973 0.013667 0 0 0 0
892000000 0.023428 0.089836 -0.003075 0.014554 0 0 0 0
896000000 0.028383 0.087852 -0.002039 0.014985 0 0 0 0
900000000 0.032939 0.085424 -0.001301 0.014777 0 0 0 0
904000000 0.037361 0.075784 -0.001066 -0.008909 0 0 0 0
908000000 0.042349 0.072803 0.000476 -0.009378 0 0 0 0
912000000 0.047101 0.069755 0.000277 -0.010213 0 0 0 0
916000000 0.051334 0.06607 0.001016 -0.010888 0 0 0 0
920000000 0.054645 0.06218 0.001356 -0.010121 0 0 0 0
924000000 0.058608 0.058431 0.001965 -0.011371 0 0 0 0
928000000 0.061512 0.055066 0.002111 -0.011381 0 0 0 0
932000000 0.06509 0.05001 0.000884 -0.011571 0 0 0 0
936000000 0.067538 0.046266 0.001441 -0.012532 0 0 0 0
940000000 0.070485 0.042288 0.001715 -0.012098 0 0 0 0
944000000 0.072918 0.038146 0.002739 -0.012767 0 0 0 0
948000000 0.073872 0.033258 0.002944 -0.013434 0 0 0 0
952000000 0.075618 0.029504 0.002561 -0.012972 0 0 0 0
956000000 0.077163 0.024122 0.003743 -0.012605 0 0 0 0
960000000 0.077897 0.020083 0.004715 -0.012269 0 0 0 0
964000000 0.078792 0.014991 0.004217 -0.012026 0 0 0 0
968000000 0.079256 0.011199 0.005552 -0.011109 0 0 0 0
972000000 0.079112 0.006375 0.00634 -0.011126 0 0 0 0
976000000 0.078874 0.001952 0.007131 -0.010277 0 0 0 0
980000000 0.077321 -0.002621 0.007676 -0.009474 0 0 0 0
984000000 0.076643 -0.0069 0.00923 -0.010463 0 0 0 0
988000000 0.076311 -0.010288 0.009702 -0.008999 0 0 0 0
992000000 0.075325 -0.014921 0.010843 -0.009111 0 0 0 0
996000000 0.073494 -0.018983 0.011417 -0.009898 0 0 0 0
1000000000 0.072288 -0.022806 0.011705 -0.009245 0 0 0 0
1004000000 0.071229 -0.024876 0.012808 -0.00771 0 0 0 0
1008000000 0.068951 -0.029201 0.011993 -0.009254 0 0 0 0
1012000000 0.066602 -0.033284 0.013882 -0.00777 0 0 0 0
1016000000 0.064698 -0.036406 0.013825 -0.006384 0 0 0 0
1020000000 0.063266 -0.03883 0.013475 -0.006914 0 0 0 0
1024000000 0.061265 -0.041397 0.014156 -0.007193 0 0 0 0
1028000000 0.057641 -0.045157 0.014383 -0.005581 0 0 0 0
1032000000 0.055326 -0.048341 0.014921 -0.005245 0 0 0 0
1036000000 0.052748 -0.050412 0.015228 -0.005411 0 0 0 0
1040000000 0.050139 -0.051419 0.013968 -0.005024 0 0 0 0
1044000000 0.046889 -0.05477 0.01392 -0.003036 0 0 0 0
1048000000 0.043589 -0.056225 0.01425 -0.0022 0 0 0 0
1052000000 0.040696 -0.063614 0.015078 -0.00133 0 0 0 0
1056000000 0.037566 -0.065121 0.016196 -0.00186 0 0 0 0
1060000000 0.03251 -0.065987 0.013708 -0.001134 0 0 0 0
1064000000 0.029752 -0.066634 0.015921 -0.001414 0 0 0 0
1068000000 0.026411 -0.067964 0.015847 -4e-06 0 0 0 0
1072000000 0.022329 -0.069333 0.015509 -0.001455 0 0 0 0
1076000000 0.019235 -0.071127 0.015401 -0.000209 0 0 0 0
1080000000 0.015405 -0.071093 0.016066 -0.000214 0 0 0 0
1084000000 0.010723 -0.070498 0.01559 -0.001565 0 0 0 0
1088000000 0.007607 -0.069523 0.015574 0.00032 0 0 0 0
1092000000 0.003627 -0.070924 0.015247 -0.000909 0 0 0 0
1096000000 -5.5e-05 -0.070271 0.01522 0.001255 0 0 0 0
1100000000 -0.003683 -0.070268 0.015367 0.000564 0 0 0 0
