# HZ S RI R 50
700000000 0.020406 -0.113846
704000000 0.020923 -0.114083
708000000 0.020186 -0.113457
712000000 0.020422 -0.113093
716000000 0.019089 -0.11288
720000000 0.018559 -0.112861
724000000 0.017819 -0.113056
728000000 0.018417 -0.112867
732000000 0.017135 -0.111923
736000000 0.016507 -0.111462
740000000 0.016821 -0.111902
744000000 0.015516 -0.111229
748000000 0.015409 -0.111631
752000000 0.016236 -0.108949
756000000 0.015959 -0.108305
760000000 0.015593 -0.107581
764000000 0.015089 -0.1077
768000000 0.014626 -0.107037
772000000 0.013546 -0.106713
776000000 0.013443 -0.107342
780000000 0.014334 -0.106608
784000000 0.013221 -0.105487
788000000 0.013004 -0.105972
792000000 0.01232 -0.106021
796000000 0.011182 -0.104804
800000000 0.012093 -0.105213
804000000 0.011367 -0.104087
808000000 0.010063 -0.104287
812000000 0.010035 -0.104326
816000000 0.010416 -0.102976
820000000 0.00954 -0.103378
824000000 0.009356 -0.102039
828000000 0.008307 -0.102666
832000000 0.008815 -0.101854
836000000 0.009369 -0.101605
840000000 0.007769 -0.100928
844000000 0.008284 -0.100991
848000000 0.008295 -0.10037
852000000 0.007929 -0.100158
856000000 0.006502 -0.099387
860000000 0.007849 -0.0991
864000000 0.007289 -0.09897
868000000 0.006975 -0.098805
872000000 0.006128 -0.097895
876000000 0.006414 -0.09653
880000000 0.006518 -0.096091
884000000 0.006944 -0.095982
888000000 0.005529 -0.095173
892000000 0.005761 -0.095115
896000000 0.006247 -0.09515
900000000 0.005485 -0.093271
904000000 0.007253 -0.100181
908000000 0.00535 -0.098066
912000000 0.005781 -0.097861
916000000 0.004858 -0.097667
920000000 0.00487 -0.098568
924000000 0.004106 -0.099591
928000000 0.002646 -0.098202
932000000 0.001779 -0.097219
936000000 0.002167 -0.098776
940000000 0.001269 -0.096558
944000000 0.000747 -0.095533
948000000 0.001069 -0.095897
952000000 0.000195 -0.095634
956000000 -0.000911 -0.097196
960000000 -0.001927 -0.096782
964000000 -0.000666 -0.093791
968000000 -0.002156 -0.094521
972000000 -0.000451 -0.092796
976000000 -0.003427 -0.093156
980000000 -0.003012 -0.094028
984000000 -0.00473 -0.093598
988000000 -0.004157 -0.091162
992000000 -0.00672 -0.090339
996000000 -0.007395 -0.089533
1000000000 -0.006314 -0.091196
1004000000 -0.005683 -0.090876
1008000000 -0.006628 -0.086202
1012000000 -0.008493 -0.087689
1016000000 -0.010271 -0.087744
1020000000 -0.008455 -0.08574
1024000000 -0.008182 -0.086352
1028000000 -0.008574 -0.08422
1032000000 -0.011053 -0.087225
1036000000 -0.010339 -0.086235
1040000000 -0.009592 -0.084914
1044000000 -0.011331 -0.082221
1048000000 -0.012313 -0.083789
1052000000 -0.015561 -0.084937
1056000000 -0.012662 -0.085215
1060000000 -0.018932 -0.081351
1064000000 -0.018246 -0.081808
1068000000 -0.017959 -0.083995
1072000000 -0.018859 -0.082297
1076000000 -0.019036 -0.08038
1080000000 -0.020204 -0.078634
1084000000 -0.021741 -0.080144
1088000000 -0.022086 -0.077333
1092000000 -0.019685 -0.074589
1096000000 -0.023512 -0.077036
1100000000 -0.022125 -0.076449
