# HZ S RI R 50
700000000 0.022507 -0.114116
704000000 0.021619 -0.113969
708000000 0.021101 -0.113728
712000000 0.021184 -0.113607
716000000 0.020429 -0.113504
720000000 0.019764 -0.11305
724000000 0.019161 -0.112743
728000000 0.018776 -0.112321
732000000 0.018473 -0.112118
736000000 0.017612 -0.111684
740000000 0.017176 -0.111601
744000000 0.017007 -0.11145
748000000 0.016283 -0.110541
752000000 0.017428 -0.108809
756000000 0.016824 -0.108652
760000000 0.016545 -0.107713
764000000 0.015972 -0.107758
768000000 0.015825 -0.107497
772000000 0.015771 -0.106849
776000000 0.014645 -0.106948
780000000 0.014702 -0.106471
784000000 0.013891 -0.106467
788000000 0.013716 -0.105993
792000000 0.013657 -0.105457
796000000 0.013394 -0.104932
800000000 0.012373 -0.104941
804000000 0.012378 -0.104678
808000000 0.012282 -0.103739
812000000 0.011643 -0.104028
816000000 0.011126 -0.103754
820000000 0.011007 -0.103498
824000000 0.010448 -0.102774
828000000 0.010671 -0.102506
832000000 0.009838 -0.102477
836000000 0.009817 -0.101959
840000000 0.009633 -0.101231
844000000 0.009172 -0.100534
848000000 0.009127 -0.10072
852000000 0.00888 -0.100008
856000000 0.008722 -0.099779
860000000 0.008379 -0.099037
864000000 0.008185 -0.0986
868000000 0.008255 -0.098207
872000000 0.008186 -0.097694
876000000 0.008286 -0.096882
880000000 0.007938 -0.095913
884000000 0.007802 -0.095886
888000000 0.007394 -0.095189
892000000 0.007763 -0.094209
896000000 0.007139 -0.093839
900000000 0.006847 -0.093207
904000000 0.006207 -0.099917
908000000 0.006821 -0.099517
912000000 0.006827 -0.099658
916000000 0.005132 -0.099265
920000000 0.005341 -0.098943
924000000 0.005432 -0.099165
928000000 0.003973 -0.099217
932000000 0.003778 -0.098344
936000000 0.00344 -0.097728
940000000 0.002887 -0.097737
944000000 0.001687 -0.097038
948000000 0.000158 -0.097594
952000000 0.001201 -0.095373
956000000 0.000426 -0.095948
960000000 -9.3e-05 -0.096764
964000000 0.000537 -0.095285
968000000 -0.000424 -0.093981
972000000 -0.001854 -0.094819
976000000 -0.00222 -0.094129
980000000 -0.002289 -0.094031
984000000 -0.002669 -0.09158
988000000 -0.002999 -0.091287
992000000 -0.004564 -0.092036
996000000 -0.004977 -0.091085
1000000000 -0.005 -0.090589
1004000000 -0.006012 -0.089499
1008000000 -0.005292 -0.089522
1012000000 -0.006777 -0.088733
1016000000 -0.006595 -0.089641
1020000000 -0.00688 -0.087451
1024000000 -0.007339 -0.08664
1028000000 -0.00923 -0.08655
1032000000 -0.008244 -0.086161
1036000000 -0.009506 -0.08655
1040000000 -0.010886 -0.085135
1044000000 -0.010686 -0.084164
1048000000 -0.011593 -0.083601
1052000000 -0.013536 -0.086023
1056000000 -0.014908 -0.085294
1060000000 -0.015423 -0.084648
1064000000 -0.017387 -0.082356
1068000000 -0.016035 -0.083565
1072000000 -0.017955 -0.081843
1076000000 -0.018704 -0.081159
1080000000 -0.018671 -0.080974
1084000000 -0.019885 -0.079519
1088000000 -0.020614 -0.077164
1092000000 -0.020888 -0.07805
1096000000 -0.021663 -0.07576
1100000000 -0.021698 -0.077456
