# HZ S RI R 50
700000000 0.014485 -0.012907 -0.105331 -1.022901 0 0 0 0
704000000 0.013037 -0.014772 -0.113865 -1.022051 0 0 0 0
708000000 0.011864 -0.015958 -0.12851 -1.01844 0 0 0 0
712000000 0.010162 -0.017097 -0.141194 -1.016444 0 0 0 0
716000000 0.008591 -0.01795 -0.153898 -1.012241 0 0 0 0
720000000 0.006821 -0.018857 -0.165399 -1.010332 0 0 0 0
724000000 0.004692 -0.019402 -0.182353 -1.005807 0 0 0 0
728000000 0.002913 -0.019479 -0.193734 -1.004916 0 0 0 0
732000000 0.001013 -0.019896 -0.203675 -0.999863 0 0 0 0
736000000 -0.000987 -0.019474 -0.213978 -0.99294 0 0 0 0
740000000 -0.002984 -0.01905 -0.226173 -0.991852 0 0 0 0
744000000 -0.004768 -0.018518 -0.24045 -0.986766 0 0 0 0
748000000 -0.006517 -0.01784 -0.24843 -0.982149 0 0 0 0
752000000 -0.007896 -0.01619 -0.261768 -0.972509 0 0 0 0
756000000 -0.009535 -0.015166 -0.274629 -0.963143 0 0 0 0
760000000 -0.010649 -0.013634 -0.281951 -0.957813 0 0 0 0
764000000 -0.011884 -0.01272 -0.298723 -0.952066 0 0 0 0
768000000 -0.012946 -0.010791 -0.309958 -0.945115 0 0 0 0
772000000 -0.013827 -0.008984 -0.321602 -0.935607 0 0 0 0
776000000 -0.014087 -0.00762 -0.331441 -0.933292 0 0 0 0
780000000 -0.014604 -0.005814 -0.343175 -0.926164 0 0 0 0
784000000 -0.014774 -0.003918 -0.356359 -0.917681 0 0 0 0
788000000 -0.014511 -0.002087 -0.367483 -0.915436 0 0 0 0
792000000 -0.014248 -0.000453 -0.380018 -0.913476 0 0 0 0
796000000 -0.013973 0.00132 -0.389406 -0.913273 0 0 0 0
800000000 -0.013075 0.002487 -0.406936 -0.900805 0 0 0 0
804000000 -0.012222 0.003973 -0.418238 -0.898381 0 0 0 0
808000000 -0.011254 0.005334 -0.428651 -0.897887 0 0 0 0
812000000 -0.010058 0.006357 -0.443536 -0.884222 0 0 0 0
816000000 -0.009126 0.007081 -0.45591 -0.88157 0 0 0 0
820000000 -0.0078 0.007907 -0.468077 -0.875066 0 0 0 0
824000000 -0.006325 0.008407 -0.478644 -0.864977 0 0 0 0
828000000 -0.005035 0.00874 -0.490853 -0.857778 0 0 0 0
832000000 -0.003587 0.00899 -0.509669 -0.852931 0 0 0 0
836000000 -0.002464 0.008709 -0.516097 -0.844596 0 0 0 0
840000000 -0.001011 0.008638 -0.531118 -0.835368 0 0 0 0
844000000 0.000434 0.008058 -0.543491 -0.82341 0 0 0 0
848000000 0.00125 0.007428 -0.554951 -0.821105 0 0 0 0
852000000 0.002259 0.006832 -0.568024 -0.811345 0 0 0 0
856000000 0.003178 0.006203 -0.575488 -0.801309 0 0 0 0
860000000 0.003731 0.005377 -0.589172 -0.79594 0 0 0 0
864000000 0.004186 0.004236 -0.599741 -0.787155 0 0 0 0
868000000 0.004739 0.003192 -0.613116 -0.785957 0 0 0 0
872000000 0.004763 0.002111 -0.617766 -0.777899 0 0 0 0
876000000 0.005025 0.001001 -0.625932 -0.772165 0 0 0 0
880000000 0.004815 0.000237 -0.631755 -0.772657 0 0 0 0
884000000 0.004453 -0.000979 -0.635266 -0.763159 0 0 0 0
888000000 0.003904 -0.001896 -0.64245 -0.761323 0 0 0 0
892000000 0.003267 -0.002633 -0.642884 -0.755808 0 0 0 0
896000000 0.002825 -0.00341 -0.650636 -0.75103 0 0 0 0
900000000 0.002122 -0.003713 -0.652838 -0.746194 0 0 0 0
904000000 0.001978 -0.004847 -0.564799 -0.694572 0 0 0 0
908000000 0.001855 -0.004843 -0.572942 -0.688573 0 0 0 0
912000000 0.000794 -0.005727 -0.583005 -0.681976 0 0 0 0
916000000 -0.000735 -0.006136 -0.58577 -0.674658 0 0 0 0
920000000 -0.001855 -0.005522 -0.591294 -0.668647 0 0 0 0
924000000 -0.003345 -0.005441 -0.595876 -0.657242 0 0 0 0
928000000 -0.004421 -0.004064 -0.603071 -0.64884 0 0 0 0
932000000 -0.004901 -0.004783 -0.607172 -0.646614 0 0 0 0
936000000 -0.00561 -0.002778 -0.608805 -0.635466 0 0 0 0
940000000 -0.006373 -0.002692 -0.612656 -0.629328 0 0 0 0
944000000 -0.007189 -0.001205 -0.614956 -0.623386 0 0 0 0
948000000 -0.008296 -0.000253 -0.621021 -0.608954 0 0 0 0
952000000 -0.008499 0.00174 -0.621711 -0.603764 0 0 0 0
956000000 -0.008608 0.002126 -0.619238 -0.600032 0 0 0 0
960000000 -0.007891 0.003321 -0.618328 -0.59353 0 0 0 0
964000000 -0.007907 0.006216 -0.613384 -0.592209 0 0 0 0
968000000 -0.007028 0.007116 -0.608444 -0.580615 0 0 0 0
972000000 -0.00581 0.008353 -0.614228 -0.575682 0 0 0 0
976000000 -0.005006 0.009858 -0.617977 -0.563866 0 0 0 0
980000000 -0.004462 0.011169 -0.613779 -0.567528 0 0 0 0
984000000 -0.003229 0.012126 -0.599746 -0.561812 0 0 0 0
988000000 -0.001085 0.012284 -0.594919 -0.549527 0 0 0 0
992000000 -0.000231 0.012612 -0.596641 -0.549373 0 0 0 0
996000000 0.000959 0.013966 -0.599091 -0.543326 0 0 0 0
1000000000 0.003425 0.013523 -0.594211 -0.541641 0 0 0 0
1004000000 0.005676 0.0138 -0.591661 -0.532346 0 0 0 0
1008000000 0.007373 0.013064 -0.592932 -0.532701 0 0 0 0
1012000000 0.008832 0.01188 -0.595966 -0.53715 0 0 0 0
1016000000 0.011172 0.011215 -0.583979 -0.537821 0 0 0 0
1020000000 0.0127 0.01059 -0.601021 -0.531592 0 0 0 0
1024000000 0.01443 0.011028 -0.601216 -0.529401 0 0 0 0
1028000000 0.014564 0.008442 -0.604759 -0.535623 0 0 0 0
1032000000 0.016285 0.007144 -0.607846 -0.532454 0 0 0 0
1036000000 0.018536 0.006274 -0.616932 -0.528847 0 0 0 0
1040000000 0.019042 0.004687 -0.622243 -0.538644 0 0 0 0
1044000000 0.019844 0.00168 -0.617869 -0.536866 0 0 0 0
1048000000 0.019837 0.000395 -0.625878 -0.528482 0 0 0 0
1052000000 0.02 -0.001016 -0.652416 -0.594284 0 0 0 0
1056000000 0.020214 -0.003611 -0.646546 -0.58275 0 0 0 0
1060000000 0.019253 -0.00513 -0.649974 -0.587242 0 0 0 0
1064000000 0.018759 -0.006588 -0.651386 -0.582422 0 0 0 0
1068000000 0.018781 -0.00768 -0.672455 -0.586071 0 0 0 0
1072000000 0.017693 -0.01019 -0.672435 -0.572946 0 0 0 0
1076000000 0.01644 -0.012673 -0.677817 -0.588306 0 0 0 0
1080000000 0.016272 -0.01503 -0.687503 -0.585464 0 0 0 0
1084000000 0.014645 -0.014962 -0.696648 -0.577319 0 0 0 0
1088000000 0.012445 -0.015684 -0.712024 -0.576539 0 0 0 0
1092000000 0.012223 -0.017356 -0.719414 -0.578065 0 0 0 0
1096000000 0.009779 -0.0187 -0.734077 -0.56242 0 0 0 0
1100000000 0.008115 -0.020915 -0.730537 -0.584961 0 0 0 0
