# HZ S RI R 50
700000000 0.014028 0.001851 0.381637 -0.977114 0 0 0 0
704000000 0.014394 0.0001 0.37008 -0.979239 0 0 0 0
708000000 0.014664 -0.001127 0.359126 -0.980765 0 0 0 0
712000000 0.01466 -0.003165 0.351815 -0.986421 0 0 0 0
716000000 0.014603 -0.00484 0.338774 -0.984328 0 0 0 0
720000000 0.01406 -0.006473 0.327569 -0.988314 0 0 0 0
724000000 0.013379 -0.007924 0.317384 -0.992513 0 0 0 0
728000000 0.012778 -0.009355 0.306264 -0.992417 0 0 0 0
732000000 0.011663 -0.010857 0.299348 -0.992259 0 0 0 0
736000000 0.010393 -0.011955 0.293241 -0.993919 0 0 0 0
740000000 0.009335 -0.012988 0.282659 -0.992956 0 0 0 0
744000000 0.007818 -0.013955 0.2712 -0.994135 0 0 0 0
748000000 0.006571 -0.014816 0.268556 -0.993897 0 0 0 0
752000000 0.005045 -0.014782 0.255108 -0.992418 0 0 0 0
756000000 0.003459 -0.015558 0.244798 -0.988512 0 0 0 0
760000000 0.001726 -0.015548 0.237876 -0.986155 0 0 0 0
764000000 0.000138 -0.015537 0.225943 -0.988143 0 0 0 0
768000000 -0.001475 -0.015233 0.216902 -0.985809 0 0 0 0
772000000 -0.002956 -0.01485 0.205639 -0.982522 0 0 0 0
776000000 -0.004416 -0.014597 0.201194 -0.983634 0 0 0 0
780000000 -0.005836 -0.013541 0.190044 -0.981222 0 0 0 0
784000000 -0.007301 -0.012791 0.177745 -0.978271 0 0 0 0
788000000 -0.008356 -0.011846 0.171388 -0.980252 0 0 0 0
792000000 -0.009545 -0.01039 0.163205 -0.983071 0 0 0 0
796000000 -0.01051 -0.009219 0.156961 -0.985546 0 0 0 0
800000000 -0.011311 -0.007998 0.141291 -0.984687 0 0 0 0
804000000 -0.011714 -0.006466 0.133876 -0.986646 0 0 0 0
808000000 -0.012184 -0.004603 0.12876 -0.988875 0 0 0 0
812000000 -0.0124 -0.003055 0.112473 -0.98981 0 0 0 0
816000000 -0.012697 -0.001832 0.104227 -0.99151 0 0 0 0
820000000 -0.01247 -2.5e-05 0.092926 -0.992066 0 0 0 0
824000000 -0.01219 0.001232 0.081522 -0.991507 0 0 0 0
828000000 -0.011669 0.002824 0.071239 -0.990943 0 0 0 0
832000000 -0.010904 0.004349 0.061003 -0.992431 0 0 0 0
836000000 -0.010199 0.005283 0.047516 -0.990883 0 0 0 0
840000000 -0.008962 0.006413 0.035742 -0.99114 0 0 0 0
844000000 -0.007875 0.007377 0.022069 -0.992251 0 0 0 0
848000000 -0.006672 0.008273 0.013407 -0.990939 0 0 0 0
852000000 -0.005455 0.008761 -0.001771 -0.990072 0 0 0 0
856000000 -0.004073 0.009362 -0.016455 -0.983914 0 0 0 0
860000000 -0.002607 0.009787 -0.02612 -0.986132 0 0 0 0
864000000 -0.001381 0.00952 -0.039881 -0.983009 0 0 0 0
868000000 0.000143 0.009565 -0.052169 -0.987189 0 0 0 0
872000000 0.001007 0.009368 -0.063448 -0.981736 0 0 0 0
876000000 0.002503 0.008787 -0.07109 -0.985139 0 0 0 0
880000000 0.003536 0.008288 -0.076736 -0.987051 0 0 0 0
884000000 0.004462 0.007252 -0.086285 -0.985908 0 0 0 0
888000000 0.005186 0.006565 -0.093622 -0.987823 0 0 0 0
892000000 0.005969 0.005612 -0.098915 -0.985995 0 0 0 0
896000000 0.006715 0.004268 -0.103114 -0.992243 0 0 0 0
900000000 0.006993 0.003411 -0.108938 -0.988877 0 0 0 0
904000000 0.010443 0.003316 -0.053264 -0.916768 0 0 0 0
908000000 0.01115 0.00212 -0.058193 -0.912515 0 0 0 0
912000000 0.011578 0.000612 -0.063805 -0.909154 0 0 0 0
916000000 0.010868 -0.000844 -0.070878 -0.904662 0 0 0 0
920000000 0.010799 -0.002245 -0.07781 -0.90082 0 0 0 0
924000000 0.010496 -0.004286 -0.0904 -0.899344 0 0 0 0
928000000 0.008887 -0.004434 -0.087579 -0.894174 0 0 0 0
932000000 0.00793 -0.006758 -0.099252 -0.895939 0 0 0 0
936000000 0.007508 -0.007143 -0.100102 -0.885327 0 0 0 0
940000000 0.006328 -0.007985 -0.103542 -0.881445 0 0 0 0
944000000 0.004853 -0.008636 -0.107444 -0.880345 0 0 0 0
948000000 0.003707 -0.008827 -0.119595 -0.870144 0 0 0 0
952000000 0.002698 -0.009378 -0.126016 -0.87494 0 0 0 0
956000000 0.000762 -0.010457 -0.123992 -0.869847 0 0 0 0
960000000 -0.000563 -0.009823 -0.119663 -0.870527 0 0 0 0
964000000 -0.001208 -0.009461 -0.113312 -0.86752 0 0 0 0
968000000 -0.003094 -0.009071 -0.112426 -0.861536 0 0 0 0
972000000 -0.004492 -0.008391 -0.114715 -0.862106 0 0 0 0
976000000 -0.006234 -0.00827 -0.121145 -0.856782 0 0 0 0
980000000 -0.006896 -0.006851 -0.114252 -0.862373 0 0 0 0
984000000 -0.008516 -0.005724 -0.103338 -0.849829 0 0 0 0
988000000 -0.008173 -0.004257 -0.105051 -0.837149 0 0 0 0
992000000 -0.009582 -0.003536 -0.100368 -0.840112 0 0 0 0
996000000 -0.009881 -0.000679 -0.107479 -0.840011 0 0 0 0
1000000000 -0.009983 0.000255 -0.099592 -0.837602 0 0 0 0
1004000000 -0.009626 0.001543 -0.109651 -0.830745 0 0 0 0
1008000000 -0.009492 0.003095 -0.102126 -0.830514 0 0 0 0
1012000000 -0.008916 0.003562 -0.102645 -0.842195 0 0 0 0
1016000000 -0.008464 0.005102 -0.095596 -0.833834 0 0 0 0
1020000000 -0.007193 0.006909 -0.108956 -0.838156 0 0 0 0
1024000000 -0.005971 0.008551 -0.109111 -0.843225 0 0 0 0
1028000000 -0.005764 0.009174 -0.111275 -0.842543 0 0 0 0
1032000000 -0.003888 0.009637 -0.108578 -0.846803 0 0 0 0
1036000000 -0.002209 0.01086 -0.126718 -0.839227 0 0 0 0
1040000000 -0.000464 0.012035 -0.119031 -0.848202 0 0 0 0
1044000000 0.001596 0.012067 -0.123825 -0.853379 0 0 0 0
1048000000 0.003007 0.011961 -0.136844 -0.858096 0 0 0 0
1052000000 0.00337 0.011686 -0.12667 -0.911722 0 0 0 0
1056000000 0.005129 0.011879 -0.138148 -0.905038 0 0 0 0
1060000000 0.006444 0.011794 -0.125541 -0.916353 0 0 0 0
1064000000 0.007973 0.011439 -0.140768 -0.913468 0 0 0 0
1068000000 0.011148 0.011026 -0.146268 -0.923167 0 0 0 0
1072000000 0.011536 0.009923 -0.160914 -0.923989 0 0 0 0
1076000000 0.013224 0.007775 -0.155689 -0.928503 0 0 0 0
1080000000 0.014868 0.006294 -0.168996 -0.925654 0 0 0 0
1084000000 0.015368 0.006572 -0.17482 -0.926063 0 0 0 0
1088000000 0.016851 0.005434 -0.186099 -0.937041 0 0 0 0
1092000000 0.017883 0.003067 -0.192289 -0.93769 0 0 0 0
1096000000 0.017691 0.001091 -0.198299 -0.944346 0 0 0 0
1100000000 0.017325 -0.001342 -0.191855 -0.955589 0 0 0 0
